"Freq [MHz]","dB(S(1,1)) []","dB(S(T1,T1)) []","dB(S(T2,T2)) []","dB(S(T3,T3)) []","dB(S(T4,T4)) []","dB(S(T5,T5)) []","dB(S(T6,T6)) []"
860,-14.0783186498531,-0.0822394383576388,-0.0778423800195828,-0.0829232608976318,-0.0884581046330216,-0.0931182015728172,-0.0884868323056821
860.222222222222,-14.0834948180384,-0.0835641756497723,-0.0791447540895114,-0.084239657523843,-0.0905827169857552,-0.0952849748868469,-0.0903946009174766
860.444444444444,-14.0876842061059,-0.0849394329296142,-0.08050777202778,-0.0856067051146147,-0.0928705205382051,-0.0976002170474894,-0.0924316044281646
860.666666666667,-14.0908865631618,-0.0863667323177324,-0.0819343905162694,-0.0870265852663669,-0.0953362668467327,-0.100075642016809,-0.0946080694220723
860.888888888889,-14.0931030845217,-0.0878476385757803,-0.0834277187541291,-0.0885015897396774,-0.097995894498077,-0.102723716582304,-0.0969349158273669
861.111111111111,-14.0943361741016,-0.0893837653491023,-0.0849910207310194,-0.090034129234873,-0.100866495089186,-0.105557598106374,-0.0994237197263995
861.333333333333,-14.0945892360272,-0.0909767837404294,-0.0866277160589503,-0.0916267437302161,-0.103966212312287,-0.108591019158599,-0.10208663599438
861.555555555556,-14.0938664914406,-0.0926284338334175,-0.0883413790096156,-0.0932821147595727,-0.107314045537978,-0.111838099353463,-0.104936265516208
861.777777777778,-14.0921728169376,-0.0943405399085479,-0.0901357353631151,-0.0950030800927753,-0.110929520445773,-0.115313059167383,-0.107985447354738
862,-14.0895136014741,-0.0961150302362754,-0.0920146566403413,-0.0967926513850735,-0.11483217883379,-0.119029804021919,-0.111246951072848
862.222222222222,-14.0858946189466,-0.0979539624947183,-0.0939821512723623,-0.0986540354851253,-0.119040828255753,-0.12300133974672,-0.114733038593318
862.444444444444,-14.0813219139727,-0.0998595560421247,-0.0960423522666227,-0.100590660236396,-0.123572480852974,-0.127238973309017,-0.118454858927636
862.666666666667,-14.0758016986873,-0.101834232479805,-0.0981995009764169,-0.102606205777969,-0.128440902182953,-0.131751246670368,-0.122421633666732
862.888888888889,-14.0693402586313,-0.103880666169019,-0.100457926687586,-0.104704642550106,-0.133654689378563,-0.136542549009336,-0.126639587835029
863.111111111111,-14.0619438660466,-0.106001846615878,-0.102822021932967,-0.106890277440484,-0.139214810547728,-0.14161135688427,-0.131110582074086
863.333333333333,-14.0536186991142,-0.108201154911665,-0.105296213766589,-0.10916780977064,-0.145111573928963,-0.146948068495324,-0.135830411953103
863.555555555556,-14.0443707658896,-0.110482456710202,-0.107884931723894,-0.111542399120515,-0.151321068686977,-0.152532434253404,-0.140786763812597
863.777777777778,-14.0342058319136,-0.112850214537878,-0.110592573918865,-0.114019747320963,-0.157801242784708,-0.158330650104101,-0.1459568605972
864,-14.0231293507165,-0.115309622561984,-0.113423473754262,-0.116606197307303,-0.164487966025089,-0.164292281088708,-0.151304902689788
864.222222222222,-14.011146396723,-0.117866767284338,-0.116381871125794,-0.119308851914061,-0.17129166299474,-0.170347325225263,-0.156779512950517
864.444444444444,-13.9982616004072,-0.120528817971259,-0.119471893867564,-0.122135716088872,-0.1780953584273,-0.176403906404468,-0.162311530832501
864.666666666667,-13.9844790860061,-0.123304250965695,-0.12269755759092,-0.125095866389751,-0.184755182155808,-0.182347274623158,-0.167812653651124
864.888888888889,-13.9698024127033,-0.126203112330359,-0.126062795059895,-0.128199651968211,-0.191104413079294,-0.188040938842793,-0.173175559692296
865.111111111111,-13.9542345210275,-0.129237323507792,-0.129571529819241,-0.131458931473323,-0.196961859763333,-0.193330776621091,-0.178276208978461
865.333333333333,-13.9377776873733,-0.132421034794919,-0.133227812840398,-0.134887350349431,-0.202144677247338,-0.198052751437907,-0.182978924674698
865.555555555556,-13.920433491184,-0.135771031320016,-0.137036045218457,-0.13850066270404,-0.206484636343256,-0.202044340083762,-0.187144535980589
865.777777777778,-13.9022028016567,-0.139307195718665,-0.14100131395512,-0.142317101081728,-0.209845636454476,-0.20515893037538,-0.190641283102803
866,-13.8830857941301,-0.143053030576322,-0.145129870814283,-0.146357795770139,-0.212139327584213,-0.207281444959649,-0.193357416485851
866.222222222222,-13.8630820110342,-0.147036241523647,-0.149429784982549,-0.150647242196118,-0.213335559772118,-0.208342594352242,-0.19521366392451
866.444444444444,-13.8421904890418,-0.151289377984571,-0.15391179723823,-0.155213809800683,-0.213465256082103,-0.208328851805538,-0.196173281956493
866.666666666667,-13.8204099837694,-0.155850521966245,-0.158590394560365,-0.160090277400121,-0.212615018082757,-0.207285754109681,-0.196247521001436
866.888888888889,-13.7977393373317,-0.16076400437679,-0.163485107316675,-0.165314366795147,-0.210914722837851,-0.20531344217698,-0.195495108258368
867.111111111111,-13.7741780541357,-0.166081110790602,-0.168622003950919,-0.170929225865906,-0.208520844511325,-0.202555076650068,-0.194015604764647
867.333333333333,-13.7497271791793,-0.171860710838267,-0.174035318155178,-0.176983781129879,-0.205598770700985,-0.199180302757823,-0.191937813805008
867.555555555556,-13.7243906145531,-0.178169702407166,-0.179769088916716,-0.183532832947162,-0.202306970033653,-0.195366787941317,-0.189405361454098
867.777777777778,-13.6981770690081,-0.185083096549482,-0.185878623070436,-0.190636697910867,-0.198784858266512,-0.191282837350472,-0.186561871181789
868,-13.6711029191779,-0.192683472160239,-0.192431501873407,-0.198360104819395,-0.195145079012805,-0.187073395090704,-0.183537833691692
868.222222222222,-13.643196377722,-0.201059390160409,-0.199507746443818,-0.206769915272616,-0.191470022782223,-0.182850755241001,-0.180440578702859
868.444444444444,-13.6145035220919,-0.210302164734666,-0.207198630387719,-0.215931063085079,-0.187811901781827,-0.17869040046837,-0.177348003065261
868.666666666667,-13.5850969432642,-0.220500140532997,-0.215603481492295,-0.225899895520904,-0.184195541023244,-0.174631738189768,-0.174306130476553
868.888888888889,-13.555088019198,-0.231729336511172,-0.22482365378558,-0.236713888286418,-0.180623105403279,-0.170683091361468,-0.171330246318911
869.111111111111,-13.5246440608465,-0.244039053016853,-0.234952699233139,-0.248376584709772,-0.1770801112813,-0.166829986095243,-0.168409199025188
869.333333333333,-13.4940116972365,-0.25743095370081,-0.246061684931752,-0.26083676266875,-0.173542162738835,-0.163045446772045,-0.16551234661741
869.555555555556,-13.463547572633,-0.271830533360104,-0.258178715106851,-0.273961583693842,-0.16998186211764,-0.159300678440777,-0.162598428691521
869.777777777778,-13.4337561276769,-0.28705126936589,-0.2712622573674,-0.287505289084106,-0.166375290226911,-0.155574352817579,-0.159625329225095
870,-13.4053308468764,-0.302754772476164,-0.285169179476519,-0.301078335481845,-0.162707401388936,-0.151858929767016,-0.15655936707614
870.222222222222,-13.3791882586691,-0.318415356475955,-0.299620847651623,-0.314126716144717,-0.158975717394581,-0.148163121164581,-0.153382613445305
870.444444444444,-13.3564716181625,-0.33330407956509,-0.31417435911198,-0.325936321551369,-0.155191891783058,-0.144510571352718,-0.150096981315813
870.666666666667,-13.3384845065479,-0.346512678490016,-0.328210367095518,-0.335679135739444,-0.151381046681709,-0.140935731200562,-0.146724497745902
870.888888888889,-13.3265024189538,-0.357036240126999,-0.340952006812491,-0.342511651889595,-0.147579179515571,-0.137478402209748,-0.143304067286476
871.111111111111,-13.3214261210811,-0.363918534321779,-0.351527642524628,-0.345717559211078,-0.14382927376186,-0.134178398380556,-0.139885828574328
871.333333333333,-13.3233166232154,-0.366435097667398,-0.35908000469288,-0.344860705881863,-0.140176919223475,-0.131071343563078,-0.136524602320431
871.555555555556,-13.3309896772693,-0.36425887897779,-0.362905794270843,-0.339895665397386,-0.136666211793518,-0.12818604864678,-0.133273834961333
871.777777777778,-13.3419540206909,-0.357544352691597,-0.362590106994109,-0.331189708142129,-0.133336498510838,-0.125543425350569,-0.130180987850492
872,-13.3528837330641,-0.346893270497386,-0.358091864108348,-0.319444641903231,-0.130220250292127,-0.123156603182133,-0.127284748310286
872.222222222222,-13.3604857037908,-0.333216481840348,-0.349749329977649,-0.305549915790082,-0.127342076271286,-0.12103182137043,-0.124613958271152
872.444444444444,-13.362324945679,-0.317548207868981,-0.338204806968235,-0.290421909802674,-0.124718702808601,-0.119169705548429,-0.122187872494169
872.666666666667,-13.3572158991232,-0.300876725830638,-0.324277739337844,-0.274877280095226,-0.1223596463849,-0.117566638163162,-0.120017269462241
872.888888888889,-13.3451184397839,-0.284031850323006,-0.308828840614264,-0.259562243190465,-0.120268298527128,-0.116216039695598,-0.118105983216978
873.111111111111,-13.3267536488204,-0.267637105085796,-0.292650582461188,-0.244934290183055,-0.11844318272239,-0.115109467348523,-0.11645253281457
873.333333333333,-13.3031921087411,-0.252112104387312,-0.276400655004854,-0.23127937622488,-0.116879207902256,-0.114237500460784,-0.115051644308804
873.555555555556,-13.2755540824638,-0.237703503739633,-0.260577164389742,-0.218746094849173,-0.115568808591475,-0.11359041965847,-0.11389555921283
873.777777777778,-13.2448450261835,-0.224526097377866,-0.245524263704148,-0.207383185548181,-0.11450291618848,-0.113158705820203,-0.112975093611192
874,-13.2118929123273,-0.212602485868029,-0.231454777543098,-0.197172793687876,-0.113671744991149,-0.112933391771549,-0.112280455167062
874.222222222222,-13.177344495799,-0.201895922403819,-0.218478946985419,-0.18805659506319,-0.113065401283243,-0.112906299412898,-0.111801847508669
874.444444444444,-13.1416883482294,-0.192335005127754,-0.206632411466676,-0.179954664591534,-0.112674337046266,-0.113070191306098,-0.111529899806869
874.666666666667,-13.1052857864432,-0.183830963237041,-0.195900035926316,-0.172778218702662,-0.112489675112039,-0.113418860809446,-0.111455959490128
874.888888888889,-13.0684005562455,-0.176289046653473,-0.186234546246503,-0.166437694371611,-0.112503432842193,-0.113947179881178,-0.111572282032001
875.111111111111,-13.0312238132963,-0.169615586421488,-0.177570230637862,-0.160847516106245,-0.112708668984161,-0.114651119253659,-0.111872146148481
875.333333333333,-12.9938937681631,-0.163722054059256,-0.16983251809847,-0.155928632135998,-0.113099574743421,-0.115527752024055,-0.112349917006578
875.555555555556,-12.9565105448364,-0.158527134898232,-0.162944368834923,-0.151609616551623,-0.113671526266078,-0.116575248823284,-0.113001074887857
875.777777777778,-12.9191471583663,-0.153957542774405,-0.156830327819536,-0.147826893048218,-0.114421112155471,-0.117792870530767,-0.113822222444847
876,-12.8818575099428,-0.149948074212506,-0.151418934000881,-0.144524452047338,-0.115346146584676,-0.11918096288515,-0.114811080267098
876.222222222222,-12.8446821595547,-0.146441231298602,-0.146644012049185,-0.141653301320682,-0.116445676080645,-0.120740956185099,-0.115966477854045
876.444444444444,-12.8076524729183,-0.143386623955976,-0.142445229784968,-0.139170799927906,-0.117719986122451,-0.122475372479945,-0.117288345147486
876.666666666667,-12.7707935922303,-0.140740282122469,-0.138768190764236,-0.137039965294117,-0.119170612252909,-0.124387842133872,-0.118777708376403
876.888888888889,-12.7341265614501,-0.13846395549099,-0.135564246487995,-0.135228804469714,-0.12080035937286,-0.126483131345758,-0.120436692993744
877.111111111111,-12.6976698459932,-0.136524444500649,-0.132790151481466,-0.133709696178944,-0.122613332198342,-0.128767182071649,-0.122268535841566
877.333333333333,-12.6614404194217,-0.134892984938562,-0.130407641584588,-0.132458835295858,-0.124614979448742,-0.13124716579436,-0.124277608290992
877.555555555556,-12.6254545407753,-0.133544695486869,-0.128382986368507,-0.131455742538984,-0.12681215414909,-0.13393155269119,-0.126469451909342
877.777777777778,-12.5897283109485,-0.132458089875012,-0.126686546779983,-0.130682837208813,-0.129213192434491,-0.136830197954151,-0.12885082816748
878,-12.5542780713091,-0.131614651010478,-0.125292356010035,-0.130125068234633,-0.131828013413232,-0.139954447308934,-0.131429783787198
878.222222222222,-12.5191206897598,-0.130998462278449,-0.124177733077484,-0.129769597699442,-0.134668242964589,-0.143317264162114,-0.134215733524533
878.444444444444,-12.4842737666059,-0.13059589029232,-0.123322933221748,-0.129605530768661,-0.137747364810982,-0.146933381283711,-0.137219562481476
878.666666666667,-12.4497557834337,-0.1303953132158,-0.122710835877768,-0.129623686181654,-0.141080902818351,-0.150819480517608,-0.140453750434489
878.888888888889,-12.4155862116494,-0.130386889031275,-0.122326669050935,-0.129816401941031,-0.144686639254156,-0.154994404719539,-0.143932521168905
879.111111111111,-12.3817855926291,-0.130562358595099,-0.122157767841358,-0.130177371413904,-0.148584874691057,-0.159479406973609,-0.147672020424837
879.333333333333,-12.348375598052,-0.130914878874541,-0.122193364362849,-0.130701505659435,-0.152798736413876,-0.164298443158528,-0.151690526809207
879.555555555556,-12.3153790765482,-0.131438882331681,-0.122424406149922,-0.131384818373952,-0.157354543604992,-0.169478515156496,-0.156008700931944
879.777777777778,-12.2828200910242,-0.132129958967495,-0.122843400204388,-0.132224330375833,-0.162282239293165,-0.175050073455316,-0.160649879109508
880,-12.2507239497366,-0.132984758043936,-0.123444280011927,-0.133217991027902,-0.16761590110553,-0.181047489630083,-0.165640419277904
880.222222222222,-12.2191172332417,-0.134000906955571,-0.124222293099454,-0.134364614414519,-0.173394345319988,-0.187509611244515,-0.171010108305936
880.444444444444,-12.1880278186449,-0.135176945123592,-0.125173906970217,-0.135663828455715,-0.179661841636295,-0.19448041412528,-0.176792641736231
880.666666666667,-12.1574849020515,-0.136512271136642,-0.126296731523233,-0.137116035457669,-0.186468959523957,-0.202009769762726,-0.183026189141364
880.888888888889,-12.12751901972,-0.138007101669361,-0.127589456324444,-0.138722382872452,-0.193873571000493,-0.210154348782615,-0.189754060792144
881.111111111111,-12.0981620681113,-0.139662440975886,-0.129051801341957,-0.140484743276662,-0.201942039236607,-0.218978684967796,-0.197025494195736
881.333333333333,-12.0694473227793,-0.141480059987876,-0.130684479984363,-0.142405702783857,-0.2107506273789,-0.228556428044801,-0.204896582227916
881.555555555556,-12.0414094558456,-0.143462484249021,-0.132489173488611,-0.144488557284862,-0.220387167166545,-0.238971817080941,-0.213431367922909
881.777777777778,-12.0140845516261,-0.145612990096545,-0.134468515893373,-0.146737316067154,-0.230953031741564,-0.250321409270141,-0.22270313420608
882,-11.9875101198237,-0.147935608658334,-0.136626089006598,-0.149156712504569,-0.242565460455979,-0.262716100054949,-0.23279591940588
882.222222222222,-11.9617251055532,-0.150435137376066,-0.138966426934252,-0.151752221634443,-0.255360283542321,-0.276283468085428,-0.243806290262069
882.444444444444,-11.9367698953288,-0.153117158893673,-0.141495029883238,-0.154530084554008,-0.269495087881255,-0.291170469332722,-0.255845401630378
882.666666666667,-11.9126863180021,-0.155988067269596,-0.144218387086879,-0.157497339674862,-0.285152846038082,-0.307546483603454,-0.269041363264878
882.888888888889,-11.8895176394995,-0.159055101582471,-0.14714400882872,-0.160661860974844,-0.302545989654522,-0.325606675403201,-0.283541914170711
883.111111111111,-11.8673085500622,-0.16232638710671,-0.150280467660966,-0.164032403483718,-0.321920829393046,-0.345575556346421,-0.29951736639979
883.333333333333,-11.8461051425419,-0.165810984337229,-0.153637449029686,-0.167618656333533,-0.343562081474474,-0.367710507613133,-0.317163710785134
883.555555555556,-11.8259548801466,-0.169518946244383,-0.157225811630794,-0.171431303798458,-0.367797015276968,-0.392304807520871,-0.336705658619685
883.777777777778,-11.8069065518725,-0.17346138424136,-0.161057657930253,-0.175482094842883,-0.394998326148483,-0.419689366870619,-0.358399198706698
884,-11.7890102136882,-0.177650543448432,-0.165146415389286,-0.179783921792031,-0.425584173259448,-0.450231844130569,-0.382532941075943
884.222222222222,-11.772317113371,-0.182099887942335,-0.16950692904076,-0.184350908836126,-0.460012784152085,-0.484331024235315,-0.409427049622134
884.444444444444,-11.7568795967248,-0.186824196784355,-0.174155566166406,-0.189198511178192,-0.498767478723017,-0.522403239902131,-0.439427886637685
884.666666666667,-11.7427509927465,-0.191839671728242,-0.179110333924518,-0.194343625735505,-0.542325808876883,-0.564856201104465,-0.472895576145305
884.888888888889,-11.7299854751522,-0.197164057617209,-0.184391010872895,-0.199804714405542,-0.591103845292267,-0.612044075821972,-0.510180594943341
885.111111111111,-11.7186378975349,-0.202816776586872,-0.190019293418901,-0.205601941006038,-0.64536411140184,-0.66419665190751,-0.551584472181718
885.333333333333,-11.7087635993101,-0.208819077294897,-0.196018958302402,-0.211757323093288,-0.705075088147182,-0.721316280768364,-0.597299357688812
885.555555555556,-11.7004181795236,-0.215194200494475,-0.20241604227267,-0.218294899947585,-0.769715475323527,-0.783041492429445,-0.647322854964182
885.777777777778,-11.6936572355534,-0.221967562350656,-0.209239040146892,-0.22524091808378,-0.838033937232583,-0.84848893250859,-0.701350037320703
886,-11.6885360637591,-0.229166956957209,-0.216519122423367,-0.232624035687926,-0.907811971930658,-0.916107841280303,-0.758656021708893
886.222222222222,-11.6851093192169,-0.236822779534366,-0.224290373550468,-0.240475547385017,-0.975733602558697,-0.983610308623085,-0.818000090612935
886.444444444444,-11.6834306318566,-0.244968271755818,-0.232590051798831,-0.248829630689554,-1.03751744973663,-1.04806072343895,-0.877600982013678
886.666666666667,-11.6835521765971,-0.253639790543412,-0.241458871419305,-0.257723615354205,-1.0884555924204,-1.10619107191001,-0.935239058875393
886.888888888889,-11.6855241954837,-0.262877101444893,-0.250941307351573,-0.267198276579189,-1.12436076808218,-1.15493097571999,-0.988516193915238
887.111111111111,-11.6893944703822,-0.272723697330536,-0.261085922125167,-0.277298152629325,-1.14266018836969,-1.19201859130397,-1.03524093168666
887.333333333333,-11.6952077454995,-0.283227142544808,-0.271945713694045,-0.288071886765909,-1.14316310498648,-1.21646688055013,-1.07382905586089
887.555555555556,-11.703005099905,-0.294439441750288,-0.28357848167782,-0.29957259245535,-1.12810427023205,-1.22868847931372,-1.10357219532466
887.777777777778,-11.712823271329,-0.306417431391376,-0.296047207725829,-0.311858239456078,-1.10144495078525,-1.23023803479289,-1.12467109211519
888,-11.7246939338411,-0.319223189842141,-0.309420443322846,-0.324992056468212,-1.06780406935731,-1.22330814850236,-1.1380363747505
888.222222222222,-11.7386429335571,-0.332924459695287,-0.323772695119577,-0.339042943368655,-1.03149123577631,-1.21019289398649,-1.14495678989639
888.444444444444,-11.7546894883096,-0.347595072048386,-0.339184793548083,-0.354085882404969,-0.995920599475107,-1.1928854804834,-1.14676444974207
888.666666666667,-11.7728453592178,-0.363315357728468,-0.355744224762119,-0.370202332769755,-0.963424746827354,-1.17287149913114,-1.14458960412838
888.888888888889,-11.7931140043044,-0.380172523751414,-0.373545398437583,-0.387480586324953,-0.935338213789351,-1.15109327847961,-1.13923623207062
889.111111111111,-11.8154897266883,-0.398260964415613,-0.392689814215947,-0.406016053386456,-0.91220036260051,-1.12802425753997,-1.13116309355998
889.333333333333,-11.8399568323867,-0.41768246462691,-0.413286077023194,-0.425911435792684,-0.893973660018313,-1.1037939903874,-1.12053522203114
889.555555555556,-11.8664888153165,-0.438546237549878,-0.435449695525359,-0.447276729213695,-0.88022758340538,-1.07832201227201,-1.10731111912634
