"Freq [MHz]","dB(S(1,1)) []","dB(S(T1,T1)) []","dB(S(T2,T2)) []","dB(S(T3,T3)) []","dB(S(T4,T4)) []","dB(S(T5,T5)) []","dB(S(T6,T6)) []"
860,-13.6107553287494,-1.21722010059385,-1.2282985211554,-1.16116507821921,-1.14299472627618,-1.13321034286456,-1.11076487380118
860.222222222222,-13.6497917549685,-1.12208825868505,-1.13477444887444,-1.06162707459825,-1.05548448704303,-1.04531025469952,-1.02912200741066
860.444444444444,-13.6879231877559,-1.03942791761164,-1.05160894839817,-0.976814108717155,-0.983677351259968,-0.971762185670429,-0.960630531343637
860.666666666667,-13.7250821237921,-0.968061425434866,-0.978344640490372,-0.905246583528531,-0.924632805326647,-0.910152217830792,-0.902908134978884
860.888888888889,-13.7611948016404,-0.906793192593693,-0.914367495386034,-0.845341654423878,-0.875913541315437,-0.858454966819516,-0.854045324745833
861.111111111111,-13.7961803097082,-0.854463733714473,-0.858963277465387,-0.795538118708759,-0.835534924848659,-0.814990525842678,-0.812511540739813
861.333333333333,-13.8299496324341,-0.809984773350347,-0.811365968217416,-0.754374763544496,-0.801898751627321,-0.778376021365406,-0.777078422007297
861.555555555556,-13.8624046738574,-0.772359600482987,-0.770796887593329,-0.7205329790475,-0.773726772049659,-0.747478745716091,-0.746758331115041
861.777777777778,-13.8934373252883,-0.74069257326396,-0.736494496762056,-0.692854192260139,-0.750000901678771,-0.721374071323554,-0.720755683310136
862,-13.9229286828055,-0.714191084028836,-0.707735694654896,-0.670340941114008,-0.729912452296254,-0.699309257335018,-0.698428687697019
862.222222222222,-13.9507485735062,-0.692162613783486,-0.683849869744659,-0.652148266407362,-0.712820463675351,-0.680673172835256,-0.679259413744744
862.444444444444,-13.9767556189242,-0.674008860426285,-0.66422712781426,-0.637570120512471,-0.698218242461235,-0.664971456734929,-0.66283046472319
862.666666666667,-14.0007981498247,-0.659218374981295,-0.648322081648039,-0.626023897014054,-0.685706905113608,-0.651806452418589,-0.648806891760368
862.888888888889,-14.0227163842243,-0.647358702740824,-0.635654441933392,-0.6170350081205,-0.674974733477644,-0.640861242649687,-0.636922289910921
863.111111111111,-14.0423463773709,-0.638068696453606,-0.625807452008699,-0.610222622514478,-0.665781302658607,-0.631887180845256,-0.626968276213961
863.333333333333,-14.0595263229377,-0.631051431224786,-0.618425003652594,-0.605287144873924,-0.657945541436282,-0.624694422382863,-0.618786764521896
863.555555555556,-14.0741057850931,-0.626067987176037,-0.613208080853034,-0.601999691664603,-0.651337095625618,-0.619145081024999,-0.612264631673863
863.777777777778,-14.085958306743,-0.622932258146211,-0.609911014457508,-0.600193631271187,-0.645870571834183,-0.615148760758375,-0.607330523262911
864,-14.0949974893052,-0.621506876314188,-0.608337894660755,-0.599758159690159,-0.641502444982746,-0.612660338693711,-0.603953681591933
864.222222222222,-14.1011959969964,-0.621700297971259,-0.608339375648399,-0.600633836036796,-0.638230627973845,-0.611679997796969,-0.602144795260531
864.444444444444,-14.1046059737512,-0.623465057672594,-0.609810006719048,-0.602809969125519,-0.63609694030739,-0.612255621853931,-0.601958960326737
864.666666666667,-14.1053781564186,-0.626797143611135,-0.612686118900291,-0.606323685363395,-0.635192986927516,-0.61448774592745,-0.603500875005186
864.888888888889,-14.1037757888659,-0.631736339111794,-0.61694415574669,-0.611260354958725,-0.635670265815628,-0.618537240998099,-0.60693228028563
865.111111111111,-14.1001787584563,-0.638367147659674,-0.622599111108871,-0.617754694139555,-0.63775560332002,-0.624635648696756,-0.612481214500578
865.333333333333,-14.0950737709319,-0.646819451201954,-0.629702337677426,-0.625991085027448,-0.641773045373267,-0.633097219562008,-0.620451446377675
865.555555555556,-14.0890282908286,-0.657267125218942,-0.638337267879966,-0.636200079490671,-0.648172438191048,-0.644329474276766,-0.631227602661733
865.777777777778,-14.0826493439322,-0.669921070732846,-0.648610296888273,-0.648645030958538,-0.657561297038579,-0.658833900122212,-0.645265295461236
866,-14.0765323064651,-0.685009926128263,-0.660631853315589,-0.663587397821798,-0.670725663002236,-0.677177198058974,-0.66304310243041
866.222222222222,-14.0712080841991,-0.702736341792263,-0.674479127934289,-0.681210704825432,-0.688597461525425,-0.699891758966659,-0.684931379056702
866.444444444444,-14.0670981939125,-0.723188839480343,-0.690127060543427,-0.70147282227884,-0.712063297000502,-0.727229207583623,-0.710904386814659
866.666666666667,-14.0644855533072,-0.746181304262808,-0.70732991673014,-0.72385366686068,-0.741405685958575,-0.758659647478916,-0.740017808046064
866.888888888889,-14.0635048306572,-0.770994892209617,-0.725439577284809,-0.747000044128667,-0.775123744766901,-0.792066238670487,-0.769695382153305
867.111111111111,-14.0641515191933,-0.796039510147693,-0.743177262986683,-0.768395426474922,-0.808342752763993,-0.822933773010914,-0.795278565415031
867.333333333333,-14.0663051441742,-0.818580313511731,-0.758461863103539,-0.784418555439508,-0.832594535387582,-0.844577701934339,-0.810861264948298
867.555555555556,-14.0697601936116,-0.834888174960752,-0.768539728979911,-0.791283568159665,-0.839772414156503,-0.850720476496286,-0.812056946971853
867.777777777778,-14.0742585463508,-0.84124939156158,-0.770717163783005,-0.786842641431657,-0.828511876821694,-0.839573874185425,-0.799025033221692
868,-14.079518705889,-0.835741918634573,-0.763654927748848,-0.772066915553837,-0.805263466769638,-0.815456187113068,-0.776568509811197
868.222222222222,-14.0852591693849,-0.819617086121508,-0.748430157869367,-0.750738020187309,-0.778677928874596,-0.785870542814857,-0.751081048524998
868.444444444444,-14.0912150843722,-0.796926760969629,-0.728325910306544,-0.727535127233682,-0.7547051604128,-0.757342142984643,-0.727538630857481
868.666666666667,-14.0971486254155,-0.772599261423029,-0.707367899840756,-0.706199063354136,-0.735883215824086,-0.733573690571716,-0.708563594506164
868.888888888889,-14.1028542107062,-0.750581359999645,-0.688803975810265,-0.688861275995914,-0.7226409540396,-0.715847492371052,-0.69496665099249
869.111111111111,-14.1081598957862,-0.73313220147015,-0.674473420054311,-0.676308839860731,-0.714526942315975,-0.704088513627489,-0.686590009464926
869.333333333333,-14.1129262012691,-0.721080099968337,-0.664998720882259,-0.668532553955129,-0.710877119297291,-0.697685234633522,-0.68290894252034
869.555555555556,-14.1170434065705,-0.714393700305351,-0.660272982981258,-0.665175029772008,-0.711086482778773,-0.695929836174128,-0.683347174299269
869.777777777778,-14.1204280781436,-0.712662324119343,-0.659879724835817,-0.665796435715839,-0.714688820911331,-0.698202117150664,-0.68740808105065
870,-14.123019358108,-0.7153868355186,-0.663346966785621,-0.670001558070918,-0.721361238786479,-0.704023897613517,-0.694713324947435
870.222222222222,-14.1247753427379,-0.722121045795926,-0.670267792023778,-0.677487438389534,-0.730905740330924,-0.713059428447911,-0.705002595927747
870.444444444444,-14.1256697344906,-0.732525567314575,-0.680342921813523,-0.688052958481991,-0.743227984044378,-0.725098227046146,-0.718120560788116
870.666666666667,-14.125688850106,-0.746379056376826,-0.693386189300393,-0.701593319179955,-0.758319721634354,-0.740035602496025,-0.734002177424788
870.888888888889,-14.1248290009869,-0.763572364039341,-0.709315973128592,-0.718090536661409,-0.776246282506746,-0.757856332987989,-0.752660499006027
871.111111111111,-14.1230942205207,-0.784098182105509,-0.728143713618023,-0.737604768344662,-0.797138788812109,-0.778622890677059,-0.774178107020951
871.333333333333,-14.1204942873948,-0.808041716367401,-0.749964186660466,-0.760268269929394,-0.82119041861445,-0.802468132541505,-0.798702196904263
871.555555555556,-14.1170429769228,-0.835574506552079,-0.774949161732739,-0.786282495082044,-0.848656115727256,-0.829591982129064,-0.826443030100529
871.777777777778,-14.1127564576277,-0.866952038697902,-0.803344806234497,-0.81591838696373,-0.879855350918472,-0.860261650942593,-0.857675480376402
872,-14.1076517316214,-0.902515270370698,-0.835472786164139,-0.849519825722559,-0.915177761941008,-0.894815115091311,-0.892743536026123
872.222222222222,-14.1017449872549,-0.942696103560232,-0.871734981074638,-0.887510277489006,-0.95509171215846,-0.933667769746502,-0.932067794863564
872.444444444444,-14.0950496800688,-0.988026954240567,-0.912621861377153,-0.930402847991429,-1.00015601193645,-0.977322400395761,-0.976156182019164
872.666666666667,-14.087574064758,-1.03915477891217,-0.958724777923862,-0.978814145667466,-1.05103525625307,-1.02638283537471,-1.02561833201565
872.888888888889,-14.0793177333818,-1.09686019245001,-1.01075265807957,-1.0334826016366,-1.10851946285125,-1.08157189096041,-1.0811843180914
873.111111111111,-14.0702664124408,-1.16208264805635,-1.06955388919972,-1.09529218899809,-1.1735489670643,-1.14375450746762,-1.14372870180487
873.333333333333,-14.0603837259487,-1.2359530684767,-1.13614451499613,-1.16530285405891,-1.24724586501045,-1.21396732697414,-1.21430123941906
873.555555555556,-14.0495976855937,-1.31983585213946,-1.21174429851979,-1.24478944993605,-1.33095372426552,-1.29345641217466,-1.29416605113145
873.777777777778,-14.03777830933,-1.41538287845009,-1.29782275319996,-1.33529159390731,-1.42628783627491,-1.38372539298507,-1.38485167850805
874,-14.024702751272,-1.52460307356611,-1.39615795848876,-1.4386777169626,-1.53519901461757,-1.48659710874714,-1.48821528361093
874.222222222222,-14.0100209427462,-1.64995237155257,-1.50891192346038,-1.55722772571953,-1.66005490997612,-1.60429286555763,-1.60652536121469
874.444444444444,-13.9933891449189,-1.79445066007652,-1.63872752719254,-1.69374027895641,-1.80374409903334,-1.73953485594686,-1.74256885478884
874.666666666667,-13.9762992959697,-1.96183474734521,-1.78885376771914,-1.85167287453975,-1.96980992028929,-1.89567923902835,-1.89979064192082
874.888888888889,-13.9784751281283,-2.15675984986936,-1.9633083557853,-2.03532601216883,-2.16262331917168,-2.07689005973117,-2.08247619913342
875.111111111111,-14.0537056685954,-2.38506708369912,-2.16708982533472,-2.25008703754777,-2.38760701290687,-2.28836788691633,-2.2959921645601
875.333333333333,-14.0631371131528,-2.65414177055022,-2.40645562824125,-2.50275548629667,-2.65152731715665,-2.53665218421214,-2.54710489404933
875.555555555556,-14.0340716626228,-2.97339846323398,-2.68928861953045,-2.80198077755473,-2.96287522456256,-2.8300235770881,-2.84440449538375
875.777777777778,-14.0108527070689,-3.35494602242348,-3.02558265205079,-3.15885649430288,-3.3323648962092,-3.17904215163662,-3.1988719131463
876,-13.9934768560972,-3.81451473883547,-3.42808980006259,-3.58773578928714,-3.77358511424293,-3.59727173323955,-3.62464011490832
876.222222222222,-13.9799402655206,-4.37277712167476,-3.91318860199932,-4.10736392449606,-4.30384466222156,-4.10225857272951,-4.14001723230051
876.444444444444,-13.969081522921,-5.05728432931982,-4.50205613795085,-4.74247304199146,-4.94524526741786,-4.7168544522108,-4.76885550317565
876.666666666667,-13.9600016163263,-5.90541096292778,-5.22225398091255,-5.52605682088969,-5.7259568717307,-5.470985150199,-5.54234318455518
876.888888888889,-13.9514477938183,-6.96902380709301,-6.10984121549107,-6.5026200329656,-6.68142057574585,-6.40389743872741,-6.50117124669946
877.111111111111,-13.9413939501382,-8.32213386195151,-7.21195682999146,-7.73259658526859,-7.85425496681082,-7.56646618662915,-7.69737209983523
877.333333333333,-13.9273394496942,-10.0731010848431,-8.58874336739689,-9.29671171365744,-9.28807784240856,-9.02093932074459,-9.19215206849378
877.555555555556,-13.907757870935,-12.377268916597,-10.3080122680593,-11.2896228896864,-10.997285463987,-10.8252719795424,-11.0327943087789
877.777777777778,-13.8835063105535,-15.3785631778236,-12.3993300971444,-13.7354886079876,-12.853512720514,-12.9440612844149,-13.137204824186
878,-13.8572153026778,-18.4500168817415,-14.6242607283927,-16.1020017923673,-14.3021004188783,-14.8989568994325,-14.9023617099087
878.222222222222,-13.8313554513974,-18.2493486890792,-15.872568455634,-16.4639403736211,-14.3939080304563,-15.3687977001608,-15.0281075791106
878.444444444444,-13.8072051089264,-15.1547033558326,-14.9159809667034,-14.4180414460381,-13.111233986554,-13.9208453844167,-13.4590421495058
878.666666666667,-13.7850415174614,-12.3028201491899,-12.7904716112613,-11.9944827500681,-11.3991829271636,-11.8887865174512,-11.4955190378471
878.888888888889,-13.7646615728113,-10.142181174563,-10.7243799312679,-9.98843528013834,-9.81820196262079,-10.0757167704147,-9.77695263996659
879.111111111111,-13.7457326062298,-8.51330496161755,-9.02042860906377,-8.42419090623565,-8.48638800636065,-8.61142880879383,-8.38630009803072
879.333333333333,-13.7279442477636,-7.26132563250276,-7.66072486546316,-7.20231298883679,-7.37484786078027,-7.43904652575803,-7.26207761841342
879.555555555556,-13.7110515195424,-6.27696117888426,-6.576644222256,-6.23048953520692,-6.43466814349274,-6.47975470534751,-6.33088749231411
879.777777777778,-13.6948748209052,-5.48442921579434,-5.70517191496315,-5.43954002037414,-5.63039950559864,-5.67234868014745,-5.53954434314891
880,-13.6792875739423,-4.83125096859114,-4.99639516611251,-4.78138683169598,-4.94047107087,-4.97918983116359,-4.85749802840103
880.222222222222,-13.6642029693141,-4.28179702846021,-4.41213287720507,-4.22425561734781,-4.35019747226994,-4.38009462617286,-4.26877279619393
880.444444444444,-13.6495630841949,-3.81254443038676,-3.92362740629947,-3.74758281995023,-3.84706814909788,-3.8635383556103,-3.7632934176135
880.666666666667,-13.6353307282997,-3.40811068838501,-3.50957442643266,-3.33765175271013,-3.41925707134233,-3.42063140259382,-3.33206414120882
880.888888888889,-13.6214835319314,-3.05807360332198,-3.15448333368025,-2.98453171294203,-3.05567450875362,-3.04273484776132,-2.96584942203081
881.111111111111,-13.6080096659801,-2.75476534250315,-2.84723809685772,-2.68031298050033,-2.74631872702238,-2.72120198727104,-2.6554529641979
881.333333333333,-13.5949046632949,-2.49199183297018,-2.57983474111067,-2.41826366668621,-2.48248277654062,-2.44778691687262,-2.39228085605984
881.555555555556,-13.5821689164669,-2.26441745686681,-2.34634899708398,-2.19249319132275,-2.25677343484892,-2.21502556468626,-2.16870814873707
881.777777777778,-13.5698055050823,-2.06732368214671,-2.14217976949739,-1.99783314126226,-2.06301030152152,-2.01641864444731,-1.97820340872243
882,-13.5578180430731,-1.8965311033019,-1.9635587148337,-1.82978437400023,-1.89607210589747,-1.84644953510287,-1.8152928605643
882.222222222222,-13.5462082315883,-1.74837068099371,-1.80726850334803,-1.68447006534781,-1.75173259681645,-1.70050776169829,-1.67544618616962
882.444444444444,-13.5349727524758,-1.61965705488971,-1.67049715004465,-1.5585793645805,-1.62650747634802,-1.57477292808854,-1.55493724110642
882.666666666667,-13.5240990367462,-1.50765165053451,-1.5507668494888,-1.44930336332478,-1.51752092109321,-1.46609145973879,-1.4507077259668
882.888888888889,-13.513559283872,-1.41001712814981,-1.44589653462485,-1.35426902731435,-1.42239340363085,-1.37186206565433,-1.36024593970063
883.111111111111,-13.5033018871904,-1.32476813998798,-1.35397611538875,-1.27147590644489,-1.33914936959072,-1.28993610704384,-1.28148416808934
883.333333333333,-13.493239151125,-1.25022277622858,-1.27334285589166,-1.19923854529198,-1.26614214192502,-1.21853401362576,-1.21271418577354
883.555555555556,-13.4832299314408,-1.18495751170427,-1.20255708643542,-1.13613587789192,-1.20199320889038,-1.15617658354105,-1.15251871465293
883.777777777778,-13.4730557773478,-1.12776705123342,-1.14037736208483,-1.08096779399981,-1.14554326397986,-1.10162915411783,-1.0997162544901
884,-13.462389752812,-1.07762948942146,-1.08573604564218,-1.03271844158826,-1.09581273026962,-1.05385649237357,-1.05331681649928
884.222222222222,-13.4507592974697,-1.0336766172238,-1.03771626225779,-0.990525537406841,-1.05196988864055,-1.01198642604884,-1.01248641014729
884.444444444444,-13.4375099002483,-0.995168910089943,-0.995530857891135,-0.953654866223304,-1.01330508373035,-0.975280516378058,-0.976518497607001
884.666666666667,-13.4217871576671,-0.961474615773081,-0.958503665120795,-0.921479169370292,-0.979209784431012,-0.943110367732107,-0.944810970539414
884.888888888889,-13.4025717673309,-0.932052346711369,-0.926053128905281,-0.893460697029283,-0.949159525332668,-0.91493843658442,-0.916847495789395
885.111111111111,-13.378818927712,-0.906436622036405,-0.897678183580211,-0.869136792673333,-0.922699956824571,-0.890302429714091,-0.892182316215704
885.333333333333,-13.3497478812881,-0.884225867496307,-0.872946184026095,-0.848107973983175,-0.89943539194578,-0.868802568275229,-0.870427784741707
885.555555555556,-13.3152598150032,-0.865072450902235,-0.851482656549122,-0.830028063356167,-0.87901936497171,-0.850091144513084,-0.851244061093326
885.777777777778,-13.2763187232015,-0.848674397301389,-0.832962629655002,-0.814595999158213,-0.861146816772315,-0.833863917230055,-0.834330519080332
886,-13.2350065470707,-0.834768487926379,-0.817103317721281,-0.801549025305546,-0.845547600767034,-0.819852986309338,-0.819418504372316
886.222222222222,-13.1940611310786,-0.823124498714499,-0.803657952376195,-0.79065701221564,-0.831981065372781,-0.807820860747602,-0.806265154118185
886.444444444444,-13.1560659196149,-0.813540377873214,-0.792410581468637,-0.781717707863928,-0.820231517813702,-0.797555492957472,-0.794648044974891
886.666666666667,-13.1227536584543,-0.80583819828263,-0.783171680574126,-0.774552755033131,-0.810104412886031,-0.788866097996901,-0.784360478722619
886.888888888889,-13.0947722472891,-0.799860750420208,-0.775774445294179,-0.76900434121496,-0.801423140976217,-0.781579612583653,-0.775207247457397
887.111111111111,-13.0718874516026,-0.795468665949315,-0.770071653400143,-0.76493237225144,-0.794026314054436,-0.7755376773963,-0.767000745578901
887.333333333333,-13.0533655849269,-0.792537982045806,-0.765933003927032,-0.76221208074484,-0.787765467856133,-0.770594048916228,-0.759557315186574
887.555555555556,-13.0336426622252,-0.790563502880557,-0.761579243584243,-0.760364285089399,-0.783285462943228,-0.768402643287221,-0.754219738164
887.777777777778,-13.0003470927895,-0.788251717799971,-0.753386968856279,-0.758061765304721,-0.781105460608698,-0.770908296878208,-0.753446853326624
888,-12.9662083331943,-0.786561798994605,-0.746217120517686,-0.75617968714064,-0.778466463311542,-0.77220321789124,-0.752603361801899
888.222222222222,-12.9316673148688,-0.785547112874144,-0.740086384791035,-0.754824046530548,-0.775615505278702,-0.772748053853791,-0.751951693727934
888.444444444444,-12.8973569290594,-0.785258907263953,-0.735015015589653,-0.75408640521344,-0.7728112898913,-0.772926613623875,-0.75170665966338
888.666666666667,-12.8641294055334,-0.785747853800858,-0.731027196285006,-0.754048128411296,-0.770311642126464,-0.773059996922733,-0.752048412482766
888.888888888889,-12.8330643538697,-0.787065381026303,-0.728151456542009,-0.754783796243124,-0.768365724254247,-0.773420559407062,-0.753132795416051
889.111111111111,-12.805442579005,-0.789264872186522,-0.726421153308627,-0.756364006809335,-0.767210500762434,-0.77424460452718,-0.755099660148658
889.333333333333,-12.7826708329128,-0.792402787301657,-0.725875026773931,-0.758857740850461,-0.767070553719921,-0.775743474548105,-0.758079661440347
889.555555555556,-12.7661493587824,-0.796539759550961,-0.726557844202911,-0.762334422627137,-0.768160287443719,-0.77811310831905,-0.762199953191665
889.777777777778,-12.757089506479,-0.801741710290001,-0.728521147102245,-0.766865786437101,-0.770687687001726,-0.781542307504325,-0.767589139583979
890,-12.756310611738,-0.808081024344299,-0.73182412027681,-0.772527640935004,-0.774858997300323,-0.786220009167261,-0.774381779063156
