"Freq [MHz]","dB(S(can_1,can_1)) []","dB(S(can_2,can_2)) []","dB(S(can_3,can_3)) []","dB(S(can_4,can_4)) []","dB(S(can_5,can_5)) []","dB(S(can_6,can_6)) []","dB(S(T1,T1)) []","dB(S(T2,T2)) []","dB(S(T3,T3)) []","dB(S(T4,T4)) []","dB(S(T5,T5)) []","dB(S(T6,T6)) []"
860,-1.24271899919202,-1.60751441324131,-1.96577905813959,-1.27179977848124,-1.54225607059034,-1.46298019518238,-1.18370405002345,-1.20723108196128,-1.18222877145514,-1.13556724870018,-1.10886066683561,-1.12552180653516
860.222222222222,-1.26058347617362,-1.62942625358789,-1.98900939779012,-1.28464414931456,-1.55673243926628,-1.47799900671551,-1.10259649315232,-1.12524650227451,-1.10128175541346,-1.07134742355293,-1.03706354658823,-1.05192644361416
860.444444444444,-1.27864082239565,-1.65201230811958,-2.01295088766173,-1.29766138495222,-1.57125852200759,-1.49284472586184,-1.03080333618228,-1.05155600657822,-1.02986526754066,-1.01385984308861,-0.973478973961266,-0.986670755835481
860.666666666667,-1.2968875395106,-1.67529626650398,-2.03762108109412,-1.31086133192287,-1.58584569527466,-1.5075174505148,-0.967487359535952,-0.985648749668997,-0.967046043818758,-0.962488732906045,-0.917251943132799,-0.928890591123413
860.888888888889,-1.31531977255254,-1.69930020193019,-2.06303115683158,-1.32425567346546,-1.60050789497903,-1.52202007880379,-0.911853842652673,-0.927017486365321,-0.911960305235238,-0.916676876376396,-0.867620812915843,-0.877815140762051
861.111111111111,-1.33393330587324,-1.7240437090888,-2.08918585388648,-1.33785835109694,-1.61526218335278,-1.53635912558327,-0.863159410631694,-0.875162430543726,-0.863816837983352,-0.875920427654289,-0.823908944141621,-0.832758570590832
861.333333333333,-1.35272356295048,-1.74954289557956,-2.11608348762224,-1.35168608490633,-1.63012944471511,-1.55054573232881,-0.820717119685982,-0.829594771814244,-0.821897186669641,-0.839764192176934,-0.785516692021653,-0.793112015013338
861.555555555556,-1.371685610986,-1.77580924071084,-2.1437160055768,-1.36575901579705,-1.64513524054964,-1.56459691214541,-0.783898694065295,-0.789839824925617,-0.785553850089104,-0.807797360729512,-0.751913929894096,-0.758336101314265
861.777777777778,-1.39081417135547,-1.80284835367622,-2.17206904747334,-1.38010149811015,-1.6603108615558,-1.57853707908434,-0.752134685913789,-0.755439800531896,-0.754207177492267,-0.779649681678616,-0.722633205459509,-0.727954099545639
862,-1.41010363713398,-1.83065868566794,-2.20112198329842,-1.39474307718589,-1.6756946231868,-1.59239991893403,-0.724913190622225,-0.725956198968836,-0.727341500058799,-0.754988056421651,-0.697263579691929,-0.70154574438276
862.222222222222,-1.42954809909569,-1.85923027640779,-2.23084791521507,-1.40971969342391,-1.6913334618637,-1.60623066653664,-0.701777623208703,-0.700971840614036,-0.704500898184239,-0.733513545345183,-0.675445165659347,-0.678741743726757
862.444444444444,-1.44914138177572,-1.88854364226016,-2.26121364248401,-1.42507516206792,-1.70728490171175,-1.62008886146391,-0.682323950902723,-0.680092556913133,-0.685284898235052,-0.714958775624002,-0.656864364632857,-0.65921896981026
862.666666666667,-1.46887709138331,-1.91856893637581,-2.29217960270521,-1.44086298572511,-1.7236194762748,-1.63405165783324,-0.666197684892695,-0.662948575117373,-0.669344309300249,-0.699085748154913,-0.641249786406756,-0.642696318663386
862.888888888889,-1.48874867756433,-1.94926552556735,-2.32369981686489,-1.4571485634292,-1.74042370582528,-1.64821776236928,-0.653090859461471,-0.649195637213075,-0.656377347231653,-0.685684049095456,-0.628368836818708,-0.628931220365936
863.111111111111,-1.50874951122331,-1.98058212740303,-2.35572187915792,-1.47401186381635,-1.75780374750012,-1.66271206319964,-0.642739167470443,-0.63851589952011,-0.646126145790948,-0.67456948234017,-0.618024955647017,-0.617716783412715
863.333333333333,-1.52887298082246,-2.01245762837716,-2.3881870444656,-1.49155062713578,-1.77588985019897,-1.67769098386091,-0.634919374470632,-0.630618664067855,-0.638373718785131,-0.665583153502124,-0.610055490029845,-0.608879559791242
863.555555555556,-1.54911260976861,-2.04482265638333,-2.42103047554103,-1.50988414541084,-1.79484175446817,-1.6933485433042,-0.629447095947567,-0.625240996036078,-0.632941408148618,-0.658591054469103,-0.604330189448152,-0.602277920760149
863.777777777778,-1.56946219766325,-2.07760190887278,-2.454181716876,-1.52915763257704,-1.81485517134963,-1.70992301054983,-0.626174988624954,-0.622148282811704,-0.629686825667346,-0.65348422141204,-0.600750303907424,-0.597801033573747
864,-1.58991598831032,-2.11071714872165,-2.48756546109045,-1.54954712221801,-1.83616943949569,-1.72770389544182,-0.624991370820122,-0.621134788322279,-0.62850226324877,-0.65017956915454,-0.599248250144311,-0.595368421080788
864.222222222222,-1.61046886742677,-2.1440906857186,-2.52110266457795,-1.5712646981794,-1.85907637381049,-1.74703879482212,-0.625819238729766,-0.622024248545007,-0.629313497591118,-0.648621541133091,-0.599787768970551,-0.594930059510944
864.444444444444,-1.63111659295452,-2.17764907976325,-2.55471205039887,-1.59456364352289,-1.88393014514812,-1.76833929577983,-0.628615569512316,-0.624670534934141,-0.632078832662841,-0.648784754175305,-0.602364407904341,-0.596466907123453
864.666666666667,-1.6518560606916,-2.21132674994593,-2.58831200716478,-1.61974274973266,-1.91115771424994,-1.79208470919386,-0.633370672192134,-0.62895837116396,-0.636788079412821,-0.650677851340874,-0.607005987248445,-0.599991625415919
864.888888888889,-1.67268560760031,-2.24506916505699,-2.6218228534465,-1.64714852410393,-1.94126880617042,-1.81882186956565,-0.640107120663464,-0.634804004376841,-0.643460920250549,-0.654348777281925,-0.613772374968432,-0.605548996999977
865.111111111111,-1.69360535455027,-2.27883533066751,-2.65516939060004,-1.67717334944862,-1.97486355365333,-1.84915863012396,-0.648877408901747,-0.642155565968676,-0.652143671422522,-0.659891591851283,-0.622753286981596,-0.613215057052234
865.333333333333,-1.71461758933994,-2.31259937009335,-2.68828361768925,-1.71024682211422,-2.01263465250644,-1.88374810965817,-0.659758795893872,-0.650992535860869,-0.662902725150081,-0.66745457937128,-0.6340617512077,-0.623093062804095
865.555555555556,-1.73572718950907,-2.3463511061707,-2.72110743736512,-1.74681667779478,-2.05535909552385,-1.92326041148969,-0.67284269552718,-0.661323114421549,-0.675811767545548,-0.677248425361803,-0.647819039863375,-0.635302847378765
865.777777777778,-1.75694208256975,-2.38009566720734,-2.75359514938346,-1.78731527824795,-2.10387237773638,-1.96833875723788,-0.68821421919294,-0.673177170433257,-0.690928059846116,-0.689550797102447,-0.664123946626839,-0.649957450119554
866,-1.77827373865379,-2.41385224310495,-2.78571551689281,-1.83210824119478,-2.15901595804902,-2.01953818253469,-0.705914972808143,-0.686590377623723,-0.708250609854883,-0.70469801553365,-0.682995125463963,-0.667116820102576
866.222222222222,-1.79973768692156,-2.44765219089329,-2.81745320546262,-1.88142438887231,-2.22154786728091,-2.07724755387562,-0.725879248201089,-0.70157161158699,-0.727650499545983,-0.723042161488847,-0.704270723665843,-0.686703107450514
866.444444444444,-1.82135404199957,-2.48153672527498,-2.84880943772489,-1.93527166504999,-2.29200879940738,-2.14159988966362,-0.747831967213837,-0.718040153228525,-0.748763153760704,-0.744827298492822,-0.727448829492791,-0.708358241123007
866.666666666667,-1.84314801961281,-2.51555443013677,-2.87980177388363,-1.9933520902256,-2.37054482437189,-2.21238145620847,-0.771140916076591,-0.735712446526598,-0.770839616768756,-0.769897768559316,-0.751466557174725,-0.731231189385889
866.888888888889,-1.86515041057174,-2.54975879870641,-2.91046301145811,-2.05499824460275,-2.45670567890885,-2.28895564740292,-0.79463612356873,-0.753915716701576,-0.792579784848407,-0.797116664058995,-0.774466274915057,-0.753720410174501
867.111111111111,-1.88739796808509,-2.58420596385217,-2.94083928405774,-2.11915946290016,-2.54926362513097,-2.37022113835865,-0.816459814073314,-0.77132686729082,-0.812026910111517,-0.823467415689067,-0.793703610208353,-0.773295429832063
867.333333333333,-1.90993364320291,-2.61895272694465,-2.97098751530447,-2.18446156261361,-2.64612345144083,-2.45462279054007,-0.83409217580226,-0.785722556480174,-0.826679963429895,-0.843352777876572,-0.805873170114619,-0.786670955331071
867.555555555556,-1.93280657468909,-2.65405494277082,-3.00097243875888,-2.24934572061217,-2.74440099359154,-2.54022671810142,-0.8447546014893,-0.794021712281408,-0.834002793940693,-0.849690153141072,-0.808077682675975,-0.790649189355225
867.777777777778,-1.95607170001925,-2.68956627519113,-3.03086342085196,-2.31226409476729,-2.84071508976811,-2.62485848114995,-0.846278312458396,-0.793091003360279,-0.832332172477841,-0.838202127289795,-0.799203444074706,-0.783564606183744
868,-1.97978880111181,-2.72553730642716,-3.06073132003502,-2.3718849225103,-2.93166254165583,-2.70628899770919,-0.838141960287561,-0.781470902399437,-0.821783606838898,-0.811907108000396,-0.78080507281539,-0.766476756246757
868.222222222222,-2.00402073187233,-2.76201496239936,-3.09064558568818,-2.42725293410111,-3.01435781608955,-2.78244154794624,-0.821993597126103,-0.760979681264664,-0.804490959288946,-0.77970627293362,-0.756650294687095,-0.743001994086723
868.444444444444,-2.02883050174614,-2.79904220608301,-3.1206717526801,-2.47786735458848,-3.0868735863136,-2.851589375484,-0.801158417118853,-0.7363866879461,-0.783885212979614,-0.750184013830899,-0.731172811755625,-0.717753419531778
868.666666666667,-2.05427683324286,-2.83665794828515,-3.15086943142965,-2.52367043517178,-3.14845204411601,-2.91251775234503,-0.77942140408733,-0.713039121231169,-0.763484599109811,-0.727805096340553,-0.707980863025031,-0.694616286399635
868.888888888889,-2.08040782540579,-2.87489712826886,-3.18129083799258,-2.56496767708969,-3.19945316598846,-2.9646339713644,-0.759901260687591,-0.694607872362079,-0.745965036615821,-0.713406338817158,-0.689224142822658,-0.67592831613073
869.111111111111,-2.10725254208633,-2.91379092321522,-3.21197986118604,-2.60231455477477,-3.24110481365866,-3.00801851096285,-0.744554024708784,-0.682528650077584,-0.732866219321021,-0.706083413793222,-0.67574399016471,-0.662592598813881
869.333333333333,-2.13481086471087,-2.95336705402861,-3.24297162842141,-2.63640230591773,-3.27516811456316,-3.04341652343469,-0.734258774803362,-0.676687915903544,-0.724776697706019,-0.70451475281136,-0.667538102219087,-0.65458841980417
869.555555555556,-2.1630429870114,-2.99365016437831,-3.27429251040096,-2.66796388486546,-3.30362077857244,-3.07217015637358,-0.72916255058268,-0.676299306730613,-0.721684590915953,-0.707530530600236,-0.664194018903393,-0.651456794429879
869.777777777778,-2.19186153952282,-3.03466225952893,-3.30596049667319,-2.69770839624824,-3.32841732140495,-3.09609211611926,-0.729026972181542,-0.680470931917799,-0.723288585690507,-0.714261105158865,-0.665175276103661,-0.652616599916017
870,-2.22113112392668,-3.07642320125863,-3.33798587746255,-2.7262830325724,-3.35134050893153,-3.11728423336698,-0.73347417480143,-0.688456616679005,-0.729204510193426,-0.724123091487331,-0.669973353318237,-0.657527135964284
870.222222222222,-2.25068079729834,-3.1189512651431,-3.37037217991627,-2.75425684487351,-3.37392994719967,-3.13791478568328,-0.742129009369595,-0.699723564674554,-0.739078704551406,-0.736763911982231,-0.678172784951506,-0.665753749992761
870.444444444444,-2.28033281631854,-3.16226377712155,-3.40311732682454,-2.78211953468309,-3.397463108705,-3.15998307863278,-0.754688155652662,-0.713941916411238,-0.752639846735487,-0.752008128682636,-0.689469908042297,-0.676983562130002
870.666666666667,-2.30994437916834,-3.20637785821215,-3.43621501140553,-2.81028927580576,-3.42296509084361,-3.18511177766918,-0.770946911609361,-0.730951613487058,-0.769716780743818,-0.769816679240941,-0.703670725309406,-0.691019899885667
870.888888888889,-2.33944997240581,-3.2513113203582,-3.46965631206902,-2.83912508473549,-3.451229424554,-3.21440764598672,-0.790805029509411,-0.750729473876551,-0.790240396965784,-0.790259237026808,-0.720681580648113,-0.707770209869173
871.111111111111,-2.36888625766209,-3.29708377364184,-3.5034316059626,-2.86894071938801,-3.48283905915095,-3.24841584579619,-0.814264141907297,-0.773363714657449,-0.814239783507362,-0.813497188015607,-0.740499207420767,-0.727234160528176
871.333333333333,-2.39838553784758,-3.34371802645504,-3.53753287953318,-2.90001817779171,-3.51818241473692,-3.28716725430096,-0.84142340050806,-0.799036919111897,-0.841837890707519,-0.839774668417635,-0.763202938925886,-0.749494569420733
871.555555555556,-2.42813713553479,-3.39124188622385,-3.57195657747553,-2.93261951255596,-3.55746372785633,-3.33029410915699,-0.872476558547067,-0.82801648236776,-0.873249196718374,-0.869415733290734,-0.788950076241182,-0.774711939099522
871.777777777778,-2.45832928093383,-3.43969049819577,-3.60670717467231,-2.96699589733214,-3.60070998469787,-3.3771769582003,-0.907711988063571,-0.860651287394016,-0.908780496629984,-0.902826388608254,-0.817974657345796,-0.803122661896267
872,-2.4890876220201,-3.48910938963747,-3.64180168877204,-3.00339273334017,-3.64777873516732,-3.42708799551434,-0.947516339126097,-0.897373641303348,-0.948835354330374,-0.940500760616864,-0.850589633820433,-0.835040756957757
872.222222222222,-2.52041910303064,-3.53955840522386,-3.67727534968673,-3.04204914242018,-3.6983720395632,-3.47930771011999,-0.992382282084833,-0.938705913685502,-0.993922590970593,-0.983031091832415,-0.887192464576905,-0.870863036236655
872.444444444444,-2.55216001398022,-3.5911166996347,-3.71318855563,-3.08318959719545,-3.7520616108471,-3.53320599740794,-1.04292078541984,-0.985271728573806,-1.04466924116065,-1.03112157545374,-0.928274249117812,-0.91107772262242
872.666666666667,-2.58393415811935,-3.6438888378248,-3.74963497568994,-3.12700499365685,-3.80832880981147,-3.58829002274425,-1.09987855122654,-1.03781194687102,-1.10183859381918,-1.08560630464928,-0.974432688246836,-0.956276703884569
872.888888888889,-2.61523019126659,-3.69801172721658,-3.78675003641317,-3.17362079263027,-3.86662070811981,-3.64422723523115,-1.16416150839811,-1.09720605429057,-1.16635421257343,-1.14747185005012,-1.0263893565606,-1.00717177702969
873.111111111111,-2.6462882586755,-3.75366135796828,-3.82471779800641,-3.22305197431731,-3.92642051055997,-3.7008537120114,-1.23686564124637,-1.16449997283729,-1.23933119785597,-1.21788521375474,-1.08501199415913,-1.06461540952584
873.333333333333,-2.6822609471564,-3.81105681296656,-3.86377209391713,-3.27514972188684,-3.98732806503393,-3.75817719237592,-1.31931692560686,-1.2409417798991,-1.32211642849308,-1.29822816832286,-1.15134277800415,-1.12962670984269
873.555555555556,-2.73647279411716,-3.87045628483515,-3.90418470206075,-3.3295535513702,-4.04914477348133,-3.81638227540398,-1.41312279282585,-1.32802739338173,-1.41634014253369,-1.39013931246718,-1.22663382203922,-1.20342344920404
873.777777777778,-2.80332537909032,-3.93213567293236,-3.94623004349682,-3.38567303274747,-4.1119571786163,-3.8758431341347,-1.52023840307393,-1.42755901989186,-1.52398204468413,-1.49556562732324,-1.31239148554122,-1.28746109054877
874,-2.86233018414406,-3.99633573746114,-3.99011531157356,-3.44272878621154,-4.17621403053484,-3.93714672170196,-1.64305216901786,-1.54172013858717,-1.64745625044557,-1.61682602435382,-1.41043144732759,-1.38347983226056
874.222222222222,-2.91350200549437,-4.06316319303746,-4.0358727429993,-3.49987327302085,-4.24279055016087,-4.00112580199679,-1.78449655379845,-1.67317210461028,-1.78972093083292,-1.75669058211944,-1.52294694076011,-1.49356063871303
874.444444444444,-2.96181416519801,-4.13244469330893,-4.08323313413763,-3.55638265833475,-4.31302717584189,-4.06889383886568,-1.94819235816601,-1.82517924080783,-1.95442071791403,-1.9184813322504,-1.65259307711234,-1.62019112918415
874.666666666667,-3.00964683799213,-4.20357258529781,-4.13153376131735,-3.6118714634966,-4.3887132421857,-4.14185842770469,-2.1386377918375,-2.00177174209283,-2.14607310751711,-2.10620438101563,-1.8025909306214,-1.76634222813592
874.888888888889,-3.0578461612152,-4.27544087357249,-4.17973497494548,-3.66645596124465,-4.47195434394854,-4.22166028515076,-2.36145803980308,-2.2079591341366,-2.37031480041764,-2.32473011311407,-1.97685636393632,-1.93555733633588
875.111111111111,-3.10667091933619,-4.34659209711449,-4.22658913684676,-3.72079644870401,-4.56481950536761,-4.30993744748911,-2.62373752845039,-2.45001185006121,-2.63423106642097,-2.58004983715893,-2.18016135424722,-2.13205935314398
875.333333333333,-3.15616255929549,-4.41559745912399,-4.27091716115465,-3.77596468080942,-4.66864306624096,-4.40776771170187,-2.9344669771046,-2.73583541846356,-2.94680232529273,-2.87965454843841,-2.41834201814405,-2.36089149524692
875.555555555556,-3.20627797559728,-4.48149740140684,-4.31186709242022,-3.83306421825118,-4.7829454595131,-4.51467929493407,-3.30515302651397,-3.07547196103394,-3.319519835522,-3.23310226856599,-2.69858216994362,-2.62813362285643
875.777777777778,-3.25693779587378,-4.54403773723826,-4.34903799876196,-3.89246189760201,-4.90426212837147,-4.62741414405419,-3.75066456209252,-3.48177919985766,-3.76725133030297,-3.65285386378929,-3.02983167709503,-2.94128700271573
876,-3.30804388047893,-4.60358674064172,-4.38244537072442,-3.95252202894262,-5.02569158707705,-4.73926808806366,-4.29043666008124,-3.97136155571183,-4.30948647124938,-4.15543841286888,-3.42347205165293,-3.30999603518496
876.222222222222,-3.3594849748163,-4.66085264447391,-4.41239201206778,-4.0083736984436,-5.13814949182219,-4.84127246852873,-4.95024136972324,-4.56586738851203,-4.97217919155114,-4.76292300239388,-3.89440526406327,-3.74732438488779
876.444444444444,-3.4111376603264,-4.71659971408615,-4.43932814984109,-4.05272768173372,-5.23335592260198,-4.92548894823368,-5.76490984343287,-5.29383029185032,-5.79056876596785,-5.50448754027639,-4.46273833836882,-4.27167761315115
876.666666666667,-3.46286567011074,-4.77147495908666,-4.46375123312274,-4.08049502663393,-5.30688948264118,-4.98839053934742,-6.78275060067702,-6.19332601641239,-6.81368972460823,-6.41764656088175,-5.15598272970502,-4.90898810600434
876.888888888889,-3.51451919446308,-4.82594907623244,-4.48615500802961,-4.09347603373954,-5.35924209860464,-5.03165886517955,-8.07314532011002,-7.31578870112711,-8.1119363273568,-7.5481560280601,-6.01099947162656,-5.69405854690004
877.111111111111,-3.5659352126453,-4.8803266584499,-4.50701377840277,-4.09883891706722,-5.39451745299554,-5.06019860177059,-9.74010340529087,-8.7309611309273,-9.79013129817608,-8.94568977621532,-7.07385995738737,-6.66948290187973
877.333333333333,-3.6169394196836,-4.93478148940859,-4.52678108182326,-4.10359930260591,-5.4181747066221,-5.07946520430315,-11.9446359107677,-10.5295381745511,-12.0079130328857,-10.6437939430837,-8.393975328512,-7.87985208091568
877.555555555556,-3.66734966611123,-4.98938863656856,-4.54588361192421,-4.11162674442462,-5.43525755674334,-5.0938058315039,-14.9110362062936,-12.797718262855,-14.978008009113,-12.5804386237273,-10.0016237774068,-9.35381447706324
877.777777777778,-3.71698002133693,-5.0441372697668,-4.5646946766567,-4.12402833909534,-5.44956192226347,-5.10601033628762,-18.5283561970584,-15.4075791695371,-18.5328665155517,-14.3506065849896,-11.8296512292217,-11.0466332895916
878,-3.76564397265083,-5.09891365272337,-4.58347471188906,-4.14047887417564,-5.46347904167746,-5.11753152489486,-19.6619638033463,-17.1371254117547,-19.5206944259483,-14.974093007422,-13.4903526337859,-12.678981742462
878.222222222222,-3.81315542357888,-5.15344744613822,-4.60227094168054,-4.16016509540751,-5.47810870297485,-5.12889287075119,-16.4576904969438,-16.0720365650957,-16.3577655040886,-13.9737965626626,-14.093083326189,-13.5431971548769
878.444444444444,-3.85932739768722,-5.20722555910441,-4.62078051108722,-4.18223893167265,-5.49337492940436,-5.1400663385157,-13.2057420642957,-13.573364303074,-13.1658850121142,-12.2359759440615,-13.1902551832007,-13.0445777706768
