"Freq [MHz]","dB(S(1,1)) []","dB(S(can_1,can_1)) []","dB(S(can_2,can_2)) []","dB(S(can_3,can_3)) []","dB(S(can_4,can_4)) []","dB(S(can_5,can_5)) []","dB(S(can_6,can_6)) []","dB(S(T1,T1)) []","dB(S(T2,T2)) []","dB(S(T3,T3)) []","dB(S(T4,T4)) []","dB(S(T5,T5)) []","dB(S(T6,T6)) []"
860,-13.6383853803882,-1.36426094582147,-1.63850614737243,-1.62713351659362,-1.33093896199333,-1.50652772471495,-1.54837388422994,-1.13190856880205,-1.18727345928939,-1.15931001633358,-1.1839532128637,-1.15209578236444,-1.17606005764357
860.222222222222,-13.6863586035993,-1.38405780052913,-1.6604556221064,-1.64929953966284,-1.344346370331,-1.5176014202604,-1.56059387826935,-1.05991404317938,-1.10448054666109,-1.07905735922426,-1.11111040111082,-1.07633859604865,-1.09664022730946
860.444444444444,-13.7315982934732,-1.40406179460692,-1.68308617344108,-1.67224012565397,-1.35804204284671,-1.52918495269404,-1.57332265490976,-0.996577314818856,-1.03123845369509,-1.00840451573041,-1.04645597639818,-1.00961015594118,-1.02656169663069
860.666666666667,-13.7741867221101,-1.42424390432583,-1.70643912118058,-1.69597253017146,-1.37203816671576,-1.54128147231031,-1.58653948610615,-0.940974194124193,-0.966647753003237,-0.946353258570806,-0.989090503877511,-0.950843196348332,-0.96474528605899
860.888888888889,-13.8142059720866,-1.44459027697897,-1.73055404230077,-1.72050778110218,-1.3863475904984,-1.55389102729119,-1.60022548711048,-0.892276687065847,-0.909873024046415,-0.891995966843177,-0.938221029404169,-0.899108713804093,-0.91024527587209
861.111111111111,-13.8517344242885,-1.46509716890106,-1.75546668525157,-1.74584968491603,-1.40098370276815,-1.56701159933363,-1.61436395612868,-0.849746932964467,-0.860146065652525,-0.844514017773788,-0.893149321986382,-0.853599167783679,-0.862234606633792
861.333333333333,-13.8868441112598,-1.4857672707121,-1.78120639018047,-1.77199397172007,-1.41596017705086,-1.58064023305163,-1.62894073342529,-0.812730490943127,-0.816766367970199,-0.803174026172543,-0.853261087762804,-0.813613350106329,-0.819991154013544
861.555555555556,-13.9195988835078,-1.50660709896081,-1.80779306667802,-1.79892765352138,-1.43129048849671,-1.59477423880037,-1.64394461181964,-0.780649455666924,-0.779099666340092,-0.76732279410445,-0.818016196981315,-0.778542943680559,-0.782885252520834
861.777777777778,-13.950053295922,-1.52762516320721,-1.83523387088079,-1.82662866804683,-1.44698703903697,-1.60941246569678,-1.65936783644309,-0.752995732540881,-0.746575220834947,-0.736381600833531,-0.786939905925363,-0.747860701205319,-0.75036851628874
862,-13.9782521091271,-1.54883067346529,-1.86351984254126,-1.85506587044599,-1.46305960360038,-1.62455666077232,-1.67520673988614,-0.7293246914985,-0.718682313558625,-0.709840281438722,-0.759615018234799,-0.721110123784301,-0.721963925776329
862.222222222222,-14.0042303104327,-1.57023260868366,-1.89262290783458,-1.88419941676593,-1.47951257959849,-1.64021295089742,-1.69146257031786,-0.709249338640201,-0.694966330861254,-0.687251403980861,-0.735674907504722,-0.697896493700134,-0.69725710153517
862.444444444444,-14.028013585024,-1.59183901319322,-1.92249382612629,-1.91398155696929,-1.49634008325137,-1.65639350645025,-1.70814258588093,-0.692435089173952,-0.675024697038917,-0.668224751764702,-0.714797310257312,-0.677879104703001,-0.675888658731785
862.666666666667,-14.04961920485,-1.61365642308339,-1.9530618781291,-1.94435782361421,-1.51351708133685,-1.67311847028555,-1.72526150999647,-0.678595187407479,-0.658502846391945,-0.652422241607187,-0.696698791657967,-0.660764529902306,-0.657547520758296
862.888888888889,-14.0690573459835,-1.63568934959631,-1.98423742506273,-1.9752685686072,-1.53098305798526,-1.69041826342673,-1.74284347079436,-0.667486794930669,-0.645090357805648,-0.639553354372122,-0.681129783077467,-0.646300766432445,-0.641965060938943
863.111111111111,-14.0863328913036,-1.65793976409491,-2.01591905215703,-2.00665076914652,-1.54861143455121,-1.70833641130434,-1.76092458562494,-0.658907752203307,-0.634517326219222,-0.62937111437319,-0.667870089036779,-0.634272093358201,-0.628909933343678
863.333333333333,-14.1014478201298,-1.68040654133356,-2.04800798048285,-2.03844000004739,-1.56615228193382,-1.72693307241876,-1.77955640049904,-0.652694007231468,-0.626551004297013,-0.621668624058531,-0.656724760203276,-0.624494471248958,-0.618183443132352
863.555555555556,-14.1144043242311,-1.70308482698195,-2.08043336555398,-2.0705724580865,-1.58313113537921,-1.74628949540206,-1.79881045591348,-0.648717692917374,-0.620992710903286,-0.616276134109226,-0.647520228663257,-0.61681129518467,-0.609615290132332
863.777777777778,-14.1252088115124,-1.72596530410025,-2.11319002522634,-2.10298692995085,-1.59872036712898,-1.7665136791158,-1.81878432483135,-0.646885815192483,-0.617674965617697,-0.613058600340394,-0.640100602271055,-0.611089284550045,-0.603059493175847
864,-14.1338769508553,-1.74903334450278,-2.14637582583513,-2.13562662539503,-1.6119053970941,-1.78774755821387,-1.83960955157073,-0.647139476550306,-0.6164587643706,-0.611913639216647,-0.634324018200296,-0.607214250315665,-0.598390264162317
864.222222222222,-14.1404398543237,-1.77226804859625,-2.18017897509258,-2.16844086315695,-1.62363145923453,-1.81017607031783,-1.86146199918111,-0.649453486333,-0.617230852204088,-0.612769731216453,-0.630058965192279,-0.605086422994711,-0.595497548214166
864.444444444444,-14.1449513613712,-1.79564120673811,-2.21474243282564,-2.20138672532123,-1.64250235343606,-1.83403845292412,-1.88457515694282,-0.653836069765976,-0.61990076395077,-0.615584417002984,-0.627180504776472,-0.604614956299045,-0.594281881381255
864.666666666667,-14.1474961583405,-1.81911626374254,-2.24995167983948,-2.23443104674428,-1.67774632910642,-1.85964201498005,-1.9092569045133,-0.660328130557917,-0.624397276590906,-0.6203420561903,-0.625566361803708,-0.605711157252949,-0.594648149480162
864.888888888889,-14.1481981202971,-1.84264744500613,-2.2854033035638,-2.26755361531996,-1.72077861110999,-1.88737833285177,-1.93590995006633,-0.669001060501514,-0.630663726876373,-0.627050427515831,-0.625092924312484,-0.608279967522193,-0.596497785484844
865.111111111111,-14.1472278152254,-1.86617931734,-2.32065807940533,-2.30075350340763,-1.76248710770982,-1.91774116787995,-1.96505543096551,-0.679951285752355,-0.638651367700114,-0.635734976505994,-0.625631303500726,-0.612209300966205,-0.599718970446855
865.333333333333,-14.1448076312356,-1.8896472153816,-2.35548077959759,-2.33406246795758,-1.80239420019595,-1.95134413159127,-1.99735761173587,-0.69328839034355,-0.648309539084722,-0.646428774817071,-0.627043765162937,-0.61735714563454,-0.604174599186453
865.555555555556,-14.1412126197576,-1.91297915677384,-2.38985609873368,-2.36757233762737,-1.84225152528573,-1.98893386756581,-2.03364468103502,-0.709111516766446,-0.659570902922762,-0.659155154291619,-0.629181052630518,-0.623537034090195,-0.609688286640978
865.777777777778,-14.1367651086566,-1.93610005554533,-2.42388741246277,-2.40148280937593,-1.88348527481923,-2.03139086686767,-2.07491568515882,-0.727465667770952,-0.672329383213116,-0.67389850056662,-0.631881353146052,-0.630503758884221,-0.616029714613289
866,-14.1318216654481,-1.95893912547917,-2.45771222423499,-2.43614849407014,-1.92705173044972,-2.0797048002834,-2.12231629553373,-0.748265974009567,-0.686407974407826,-0.69055710051943,-0.634971851230491,-0.63794312875079,-0.622902300367009
866.222222222222,-14.1267522216956,-1.98144116692785,-2.49146302690084,-2.47199537955649,-1.97360075176449,-2.13490514730961,-2.17705744932541,-0.771176256519395,-0.701513795399738,-0.708871265795509,-0.638273851547997,-0.645471801593851,-0.629938400386294
866.444444444444,-14.1219129961861,-2.0035817096042,-2.52525595203396,-2.50908471880888,-2.02356813088901,-2.19792382268733,-2.24024549182248,-0.795434939444632,-0.71717990936169,-0.728322884631899,-0.641612189896645,-0.652654704867284,-0.636709318328785
866.666666666667,-14.1176168241744,-2.02538453900187,-2.55919035917795,-2.54666414007491,-2.07719073642665,-2.26937112507493,-2.31260081987973,-0.819650252069035,-0.73269969145386,-0.748014439422596,-0.64482894998279,-0.659046273598925,-0.642757592190789
866.888888888889,-14.1141058945513,-2.04693804933832,-2.59335131920065,-2.58374358839155,-2.13447247018806,-2.34923020450466,-2.39407985585377,-0.841654701785847,-0.747072701165178,-0.766563699600308,-0.647800351115087,-0.664255583493548,-0.647655037394697
867.111111111111,-14.1115320268429,-2.06840483057011,-2.62781222577122,-2.62004061717762,-2.19512516188689,-2.43652698612842,-2.48349152589269,-0.858608636275717,-0.759001938191786,-0.782096584702592,-0.650454293003846,-0.668024351077011,-0.651080399989883
867.333333333333,-14.1099482158416,-2.09001829893999,-2.66263689053913,-2.65587450524042,-2.25850934324457,-2.52910297482104,-2.5782898483558,-0.867581550754821,-0.767003159071947,-0.792461288037846,-0.6527849445478,-0.670295141078533,-0.652897547229673
867.555555555556,-14.1093126141877,-2.11206251179772,-2.69788113283146,-2.69164665737681,-2.32360504683259,-2.62366233377021,-2.67475062040916,-0.86662746589513,-0.769682269464048,-0.795751771743187,-0.654860581512452,-0.671243339147021,-0.653206382298324
867.777777777778,-14.1095033117096,-2.1348368087942,-2.73359400566883,-2.7276352874425,-2.38904497386841,-2.71621087474009,-2.76861297451771,-0.855862050203655,-0.766169053834876,-0.791041418310077,-0.656822029472486,-0.671256800979036,-0.652342968557881
868,-14.1103401780189,-2.15861345525524,-2.76981878264609,-2.76400496235198,-2.45323284965741,-2.80282489464094,-2.85600487253293,-0.837722237186294,-0.756559887814437,-0.778954883896859,-0.65887138054895,-0.670868265160772,-0.650824369230801
868.222222222222,-14.1116092400955,-2.18360023220002,-2.80659378887637,-2.80085366325311,-2.51454388697721,-2.88047657168584,-2.93426476852197,-0.816076540455676,-0.74211218975852,-0.761645482351344,-0.661253298159169,-0.670664902633121,-0.649257259925571
868.444444444444,-14.1130855542712,-2.20991823832459,-2.84395312630911,-2.83824569041776,-2.5715683217721,-2.94757603153119,-3.00231868363886,-0.794806510658526,-0.725004811108651,-0.742110070478908,-0.664233114589162,-0.67120494100765,-0.648242419772727
868.666666666667,-14.1145518346313,-2.23759889818144,-2.88192732329466,-2.87622928450789,-2.6233314588763,-3.00404527179277,-3.06054240273509,-0.776780868440252,-0.707746297627513,-0.723261770438331,-0.668076334785011,-0.672962090439481,-0.648302911952763
868.888888888889,-14.1158116155149,-2.26659710547451,-2.92054392730329,-2.91484528381465,-2.66942427021563,-3.05099105202774,-3.11029770493488,-0.763585975562365,-0.692545347059905,-0.707276343151455,-0.673033111006154,-0.676303198936603,-0.649848181643232
869.111111111111,-14.1166969913528,-2.29681322434356,-2.95982805473764,-2.95413127818395,-2.71001113177087,-3.09019962798269,-3.15340555134306,-0.755779033092225,-0.680932210613636,-0.695408177264564,-0.679329407553219,-0.681492673620296,-0.653170845901534
869.333333333333,-14.1170717794912,-2.32811641662519,-2.99980291029953,-2.99412362641577,-2.74572771527699,-3.12366675218331,-3.19173360261335,-0.753293343508343,-0.673702497146764,-0.688145154536725,-0.687164763082036,-0.68871256468751,-0.658464784884766
869.555555555556,-14.1168312940131,-2.36036413825858,-3.04049028887591,-3.03485849252019,-2.77751614197567,-3.15327347053916,-3.22695224036515,-0.755777081750996,-0.671073635086432,-0.685481887573656,-0.696715345594408,-0.69808830407271,-0.665852494672314
869.777777777778,-14.1158999221261,-2.39341563278172,-3.08191107460923,-3.07637245294243,-2.80645187872962,-3.18061933349062,-3.2604334884459,-0.762808901836617,-0.672906248940976,-0.687165722490526,-0.70814052993876,-0.709713606587862,-0.675413078737283
870,-14.1142275074637,-2.42713950184422,-3.12408575439081,-3.11870294061439,-2.83360194740519,-3.20697340008053,-3.29324144537251,-0.774011576529883,-0.678896035228727,-0.692865829552843,-0.721591346939158,-0.723671498350373,-0.687206384941348
870.222222222222,-14.1117852878728,-2.46141658573449,-3.16703496641412,-3.16188865810873,-2.8599312373073,-3.2332939469923,-3.32616864166057,-0.789101356045532,-0.688704669893377,-0.702270464614886,-0.737219582465663,-0.740050813784184,-0.701291914001505
870.444444444444,-14.1085618859744,-2.49613967956766,-3.21078010876264,-3.20597003059891,-2.88625522225355,-3.26027859276106,-3.35978823028732,-0.807903199521803,-0.702034894218177,-0.715134512981871,-0.755186807150042,-0.758958759012775,-0.717742896406455
870.666666666667,-14.104559646366,-2.53121144551804,-3.25534403846545,-3.25098974170684,-2.91322778070029,-3.28842140071375,-3.39450585719219,-0.830350729614414,-0.71866682146581,-0.731298118542649,-0.775673053047755,-0.780530614105877,-0.736656671452788
870.888888888889,-14.0997914640768,-2.56654158485579,-3.30075189821557,-3.29699338365716,-2.9413507955454,-3.3180652997134,-3.43060432537776,-0.856481208087818,-0.738471675631686,-0.750690867546028,-0.798885171704005,-0.804937696204626,-0.758162638885172
871.111111111111,-14.0942781503088,-2.60204410322335,-3.34703211606324,-3.34403024854062,-2.97099439012322,-3.34944551222909,-3.46827929011673,-0.886430647004149,-0.761414514453326,-0.773330198027902,-0.825065114410844,-0.832394580761378,-0.782428923391679
871.333333333333,-14.0880463232132,-2.6376354441659,-3.39421763258355,-3.39215428481818,-3.00242015139459,-3.38272353829837,-3.50766661609187,-0.92043140358223,-0.787553048152492,-0.79931876292961,-0.85449850017937,-0.863166420166341,-0.809668691244382
871.555555555556,-14.0811267823735,-2.67323444679459,-3.44234741923924,-3.44142523843031,-3.03580288362699,-3.4180129206694,-3.54886289981974,-0.958813285064018,-0.817036553738932,-0.828843163586402,-0.887523914744584,-0.897577073732492,-0.84014688115049
871.777777777778,-14.0735533164287,-2.70876556856779,-3.4914683583292,-3.4919099861989,-3.07124875265476,-3.45539852479588,-3.59194079861272,-1.00200865716562,-0.850107022193305,-0.862175259288483,-0.924543444614333,-0.936018694669044,-0.874187993374015
872,-14.0653618970359,-2.74416766004636,-3.54163755342496,-3.54368404329316,-3.10880912318538,-3.49495103867121,-3.63696065113337,-1.05056192949964,-0.887103687818007,-0.899676708142776,-0.966035016722073,-0.978963414071684,-0.912185530069499
872.222222222222,-14.0565902248333,-2.77941173689507,-3.59292511821357,-3.59683317423543,-3.14849017466847,-3.53673817546139,-3.68397964575001,-1.10514388886068,-0.92847163204713,-0.941807219697836,-1.0125672040786,-1.02697781947375,-0.954613693565035
872.444444444444,-14.0472776121322,-2.81453221681241,-3.64541742939924,-3.65145493804356,-3.19025874249672,-3.58083381401538,-3.73305959220622,-1.16657157665054,-0.974774985722861,-0.989137038524468,-1.06481728543617,-1.0807410478404,-1.0020420256663
872.666666666667,-14.0374652126471,-2.84967547094318,-3.69922068570855,-3.7076598198482,-3.23404495870138,-3.62732611049018,-3.7842742210566,-1.2358347286694,-1.02671521891278,-1.04236434704068,-1.12359352662366,-1.1410675064308,-1.05515381142568
872.888888888889,-14.0271966425021,-2.88516375562821,-3.75446432006008,-3.76557129301712,-3.27974228700469,-3.67632548302157,-3.83771688997031,-1.31413021642596,-1.08515501063423,-1.10233853825094,-1.18986289940344,-1.20893551274359,-1.1147692826482
873.111111111111,-14.0165190830283,-2.92155610790552,-3.81130325160456,-3.82532364587288,-3.32720553876373,-3.7279733119959,-3.89350962341891,-1.40290647391706,-1.15114818368931,-1.17009065152896,-1.26478579168781,-1.28552352833301,-1.18187495442968
873.333333333333,-14.0054850212456,-2.95965840165832,-3.86991697434324,-3.88705561144349,-3.37624746196967,-3.7824521964892,-3.95181455481928,-1.50392060685188,-1.22597617838602,-1.24687268142529,-1.34975971935699,-1.37225618302637,-1.25766083592206
873.555555555556,-13.9941548787785,-3.00040971460632,-3.9305018793789,-3.95089670477037,-3.42663453473821,-3.83999862329197,-4.01284906713467,-1.61931182916386,-1.31119161729572,-1.33420794636635,-1.44647466399959,-1.4708629928021,-1.34356780933863
873.777777777778,-13.982600919239,-3.04460276311534,-3.99325096202169,-4.01694180914999,-3.47808267046355,-3.90091884039192,-4.07690618331042,-1.75169615146151,-1.40866991064748,-1.43395519694503,-1.55698348685274,-1.5834536328575,-1.44134821896565
874,-13.9709130269747,-3.0925257618802,-4.05831272621431,-4.08520853064499,-3.53025364237833,-3.9656083422459,-4.14438185467361,-1.90428900126888,-1.52067095720353,-1.5483895529006,-1.68379198246065,-1.71261493180395,-1.55314372512305
874.222222222222,-13.9592072344288,-3.14375747883197,-4.12572071993685,-4.1555727238586,-3.58275313446943,-4.03457410214343,-4.21581020254421,-2.08106490401398,-1.64991528481649,-1.68030352008279,-1.82997464198251,-1.86153653897051,-1.68158585561596
874.444444444444,-13.9476382352054,-3.19729913072401,-4.1952913959651,-4.22768350685517,-3.63513138251378,-4.10845523663801,-4.29190511455517,-2.28696684452823,-1.79968277286123,-1.83313112042135,-1.99932424707899,-2.03417468225638,-1.82992656916681
874.666666666667,-13.9364174529308,-3.25196108522108,-4.2665076734402,-4.30087424504853,-3.68688732955087,-4.18802938914762,-4.3735986091878,-2.52818304420346,-1.97394721326115,-2.01109790463215,-2.19654623317771,-2.23546687587172,-2.00220873186958
874.888888888889,-13.9258381350355,-3.3067346484515,-4.33844078352791,-4.37411165447993,-3.73747702496901,-4.27417342337777,-4.46204599651106,-2.81251666244995,-2.17756548571868,-2.21940132600718,-2.42751268495742,-2.47161532055209,-2.20348999210973
875.111111111111,-13.9163071476475,-3.36096507426439,-4.40979525807841,-4.44604995022845,-3.78632659526122,-4.36770991233837,-4.55852249929135,-3.14988629733049,-2.41654482138581,-2.46443541739482,-2.69959640119531,-2.75046383058007,-2.44013856628329
875.333333333333,-13.9083762974754,-3.41433572242222,-4.47914319018595,-4.51524846791474,-3.83284948895576,-4.46901175998553,-4.66405347476793,-3.5530159108169,-2.6984151269629,-2.75410095588571,-3.02211361262592,-3.08200376648732,-2.72022662455534
875.555555555556,-13.9027464802597,-3.46676560871224,-4.54530620615074,-4.580534181609,-3.87646689035775,-4.57719190604509,-4.77853021798614,-4.03840962439015,-3.03273733125843,-3.09829231767309,-3.40691629811275,-3.47906114764488,-3.05405748575227
875.777777777778,-13.9001736228828,-3.51830298690463,-4.60770501058097,-4.64136647484677,-3.91662934180596,-4.68884019183772,-4.89916312179985,-4.62777562789009,-3.43178714849876,-3.50970082592826,-3.86919464654676,-3.95824473131527,-3.45487882153193
876,-13.9011374109136,-3.56904847081736,-4.66647587285552,-4.69800166925951,-3.95283698528345,-4.79693658939769,-5.01889321734072,-5.35019757245238,-3.91147162320468,-4.00506328279249,-4.42858262188108,-4.54128311134245,-3.93985947837444
876.222222222222,-13.905134789295,-3.619109625088,-4.72230727145014,-4.75135643116029,-3.98465594683742,-4.89174189576215,-5.12690605766078,-6.24562243657994,-4.4925683135327,-4.60690487565975,-5.11071439481187,-5.25696720751776,-4.53144965244455
876.444444444444,-13.9098247224431,-3.66857804737179,-4.77613058286948,-4.80266207751252,-4.01173032075877,-4.96519954341177,-5.21330561111238,-7.37079896048403,-5.20242769861821,-5.34582009891451,-5.94946918508829,-6.14407906813722,-5.25931531735655
876.666666666667,-13.9111005153596,-3.71751962921743,-4.82884032714739,-4.85310559953327,-4.03379556775593,-5.01625369020091,-5.27522083865084,-8.81002991153942,-6.0773422326774,-6.26356758200507,-6.99026123692643,-7.25597954783719,-6.16315129912114
876.888888888889,-13.9051308069199,-3.76597139608576,-4.88113404255383,-4.90359923791643,-4.05071652312198,-5.05128605040633,-5.31782294381421,-10.6957801277668,-7.1657882173444,-7.41763394693803,-8.29471679909462,-8.66790305388592,-7.29680128857463
